
T3F68 000:058 SEGGER J-Link V6.16d Log File (0001ms, 0020ms total)
T3F68 000:058 DLL Compiled: Jun 21 2017 19:08:15 (0001ms, 0020ms total)
T3F68 000:058 Logging started @ 2018-11-27 02:05 (0001ms, 0020ms total)
T3F68 000:059 JLINK_SetWarnOutHandler(...) (0000ms, 0020ms total)
T3F68 000:059 JLINK_OpenEx(...)
Firmware: J-Link ARM V8 compiled Nov 28 2014 13:44:46
Hardware: V8.00
S/N: 263001882
OEM: SEGGER-EDU
Feature(s): FlashBP, GDBWEBSRV Webserver running on local port 19080 (0011ms, 0031ms total)
T3F68 000:059   returns O.K. (0011ms, 0031ms total)
T3F68 000:070 JLINK_SetErrorOutHandler(...) (0000ms, 0031ms total)
T3F68 000:070 JLINK_ExecCommand("ProjectFile = "C:\Projecten\DieBieMS\GitHub\Firmware\DieBieMS\MDK-ARM\JLinkSettings.ini"", ...). C:\Program Files (x86)\SEGGER\JLink_V616d\JLinkDevices.xml evaluated successfully.  returns 0x00 (0108ms, 0139ms total)
T3F68 000:183 JLINK_ExecCommand("Device = STM32F303CC", ...). Device "STM32F303CC" selected.  returns 0x00 (0004ms, 0143ms total)
T3F68 000:187 JLINK_ExecCommand("DisableConnectionTimeout", ...).   returns 0x01 (0000ms, 0143ms total)
T3F68 000:187 JLINK_GetHardwareVersion()  returns 0x13880 (0000ms, 0143ms total)
T3F68 000:187 JLINK_GetDLLVersion()  returns 61604 (0000ms, 0143ms total)
T3F68 000:197 JLINK_GetDLLVersion()  returns 61604 (0000ms, 0143ms total)
T3F68 000:197 JLINK_GetCompileDateTime() (0000ms, 0143ms total)
T3F68 000:200 JLINK_GetFirmwareString(...) (0000ms, 0143ms total)
T3F68 000:202 JLINK_GetHardwareVersion()  returns 0x13880 (0000ms, 0143ms total)
T3F68 000:216 JLINK_TIF_Select(JLINKARM_TIF_SWD)  returns 0x00 (0001ms, 0144ms total)
T3F68 000:217 JLINK_SetSpeed(1000) (0000ms, 0144ms total)
T3F68 000:217 JLINK_GetId() >0x10B TIF>Found SW-DP with ID 0x2BA01477 >0x0D TIF> >0x28 TIF> >0x0D TIF> >0x28 TIF> >0x0D TIF> >0x28 TIF> >0x0D TIF> >0x28 TIF> >0x0D TIF> >0x21 TIF> >0x0D TIF> >0x28 TIF> >0x0D TIF> >0x28 TIF> >0x0D TIF> >0x28 TIF> >0x0D TIF> >0x21 TIF> >0x0D TIF> >0x21 TIF> >0x0D TIF> >0x28 TIF> >0x0D TIF> >0x21 TIF> >0x0D TIF> >0x21 TIF> >0x0D TIF> >0x28 TIF> >0x0D TIF> >0x21 TIF> >0x0D TIF> >0x21 TIF> >0x0D TIF> >0x28 TIF> >0x0D TIF> >0x21 TIF> >0x0D TIF> >0x21 TIF> >0x0D TIF> >0x28 TIF>
 >0x0D TIF> >0x21 TIF> >0x0D TIF> >0x21 TIF> >0x0D TIF> >0x28 TIF> >0x0D TIF> >0x21 TIF> >0x0D TIF> >0x21 TIF> >0x0D TIF> >0x28 TIF> >0x0D TIF> >0x21 TIF> >0x0D TIF> >0x21 TIF> >0x0D TIF> >0x28 TIF> >0x0D TIF> >0x21 TIF> >0x0D TIF> >0x21 TIF> >0x10B TIF>Found SW-DP with ID 0x2BA01477 >0x0D TIF> >0x28 TIF> >0x0D TIF> >0x28 TIF> >0x0D TIF> >0x28 TIF> >0x0D TIF> >0x28 TIF> >0x0D TIF> >0x21 TIF> >0x0D TIF> >0x28 TIF>Scanning APs, stopping at first AHB-AP found. >0x0D TIF> >0x28 TIF> >0x0D TIF> >0x21 TIF>
 >0x0D TIF> >0x21 TIF>AP[0] IDR: 0x24770011 (AHB-AP) >0x0D TIF> >0x28 TIF> >0x0D TIF> >0x21 TIF> >0x0D TIF> >0x21 TIF>AHB-AP ROM: 0xE00FF000 (Base addr. of first ROM table) >0x0D TIF> >0x28 TIF> >0x0D TIF> >0x28 TIF> >0x0D TIF> >0x28 TIF> >0x0D TIF> >0x21 TIF> >0x0D TIF> >0x21 TIF> >0x0D TIF> >0x28 TIF> >0x0D TIF> >0x21 TIF> >0x0D TIF> >0x21 TIF>CPUID reg: 0x410FC241. Implementer code: 0x41 (ARM)Found Cortex-M4 r0p1, Little endian. -- CPU_ReadMem(4 bytes @ 0xE000EDF0)
 -- CPU_WriteMem(4 bytes @ 0xE000EDF0) -- CPU_ReadMem(4 bytes @ 0xE0002000)FPUnit: 6 code (BP) slots and 2 literal slots -- CPU_ReadMem(4 bytes @ 0xE000EDFC) -- CPU_WriteMem(4 bytes @ 0xE000EDFC) -- CPU_ReadMem(4 bytes @ 0xE0001000) -- CPU_WriteMem(4 bytes @ 0xE0001000) -- CPU_ReadMem(4 bytes @ 0xE000ED88) -- CPU_WriteMem(4 bytes @ 0xE000ED88) -- CPU_ReadMem(4 bytes @ 0xE000ED88) -- CPU_WriteMem(4 bytes @ 0xE000ED88)CoreSight components:ROMTbl[0] @ E00FF000 -- CPU_ReadMem(16 bytes @ 0xE00FF000)
 -- CPU_ReadMem(16 bytes @ 0xE000EFF0) -- CPU_ReadMem(16 bytes @ 0xE000EFE0)ROMTbl[0][0]: E000E000, CID: B105E00D, PID: 000BB00C SCS -- CPU_ReadMem(16 bytes @ 0xE0001FF0) -- CPU_ReadMem(16 bytes @ 0xE0001FE0)ROMTbl[0][1]: E0001000, CID: B105E00D, PID: 003BB002 DWT -- CPU_ReadMem(16 bytes @ 0xE0002FF0) -- CPU_ReadMem(16 bytes @ 0xE0002FE0)ROMTbl[0][2]: E0002000, CID: B105E00D, PID: 002BB003 FPB -- CPU_ReadMem(16 bytes @ 0xE0000FF0) -- CPU_ReadMem(16 bytes @ 0xE0000FE0)
ROMTbl[0][3]: E0000000, CID: B105E00D, PID: 003BB001 ITM -- CPU_ReadMem(16 bytes @ 0xE00FF010) -- CPU_ReadMem(16 bytes @ 0xE0040FF0) -- CPU_ReadMem(16 bytes @ 0xE0040FE0)ROMTbl[0][4]: E0040000, CID: B105900D, PID: 000BB9A1 TPIU -- CPU_ReadMem(16 bytes @ 0xE0041FF0) -- CPU_ReadMem(16 bytes @ 0xE0041FE0)ROMTbl[0][5]: E0041000, CID: B105900D, PID: 000BB925 ETM -- CPU is running -- CPU_WriteMem(4 bytes @ 0xE000EDF0) -- CPU is running -- CPU_WriteMem(4 bytes @ 0xE000EDFC) >0x35 TIF>Setting AIRCR.SYSRESETREQ
 -- CPU is running -- CPU_WriteMem(4 bytes @ 0xE000ED0C) >0x0D TIF> >0x28 TIF> -- CPU_ReadMem(4 bytes @ 0xE000ED0C) -- CPU_ReadMem(4 bytes @ 0xE000EDF0) -- CPU_ReadMem(4 bytes @ 0xE000EDF0) -- CPU_ReadMem(4 bytes @ 0xE000EDF0) -- CPU is running -- CPU_WriteMem(4 bytes @ 0xE000EDF0) -- CPU is running -- CPU_WriteMem(4 bytes @ 0xE000EDFC) -- CPU_ReadMem(4 bytes @ 0xE000EDF0) -- CPU_WriteMem(4 bytes @ 0xE0002000) -- CPU_ReadMem(4 bytes @ 0xE000EDFC) -- CPU_ReadMem(4 bytes @ 0xE0001000)
 -- CPU_WriteMem(32768 bytes @ 0x20000000) >0x0D TIF> >0x21 TIF>  returns 0x2BA01477 (0635ms, 0779ms total)
T3F68 000:852 JLINK_GetDLLVersion()  returns 61604 (0000ms, 0779ms total)
T3F68 000:852 JLINK_CORE_GetFound()  returns 0xE0000FF (0000ms, 0779ms total)
T3F68 000:852 JLINK_GetDebugInfo(0x100 = JLINKARM_ROM_TABLE_ADDR_INDEX) -- Value=0xE00FF000  returns 0x00 (0000ms, 0779ms total)
T3F68 000:855 JLINK_GetDebugInfo(0x100 = JLINKARM_ROM_TABLE_ADDR_INDEX) -- Value=0xE00FF000  returns 0x00 (0000ms, 0779ms total)
T3F68 000:855 JLINK_GetDebugInfo(0x101 = JLINKARM_DEBUG_INFO_ETM_ADDR_INDEX) -- Value=0xE0041000  returns 0x00 (0000ms, 0779ms total)
T3F68 000:855 JLINK_GetDebugInfo(0x102 = JLINKARM_DEBUG_INFO_MTB_ADDR_INDEX) -- Value=0x00000000  returns 0x00 (0000ms, 0779ms total)
T3F68 000:855 JLINK_GetDebugInfo(0x103 = JLINKARM_DEBUG_INFO_TPIU_ADDR_INDEX) -- Value=0xE0040000  returns 0x00 (0000ms, 0779ms total)
T3F68 000:855 JLINK_GetDebugInfo(0x104 = JLINKARM_DEBUG_INFO_ITM_ADDR_INDEX) -- Value=0xE0000000  returns 0x00 (0000ms, 0779ms total)
T3F68 000:855 JLINK_GetDebugInfo(0x105 = JLINKARM_DEBUG_INFO_DWT_ADDR_INDEX) -- Value=0xE0001000  returns 0x00 (0000ms, 0779ms total)
T3F68 000:855 JLINK_GetDebugInfo(0x106 = JLINKARM_DEBUG_INFO_FPB_ADDR_INDEX) -- Value=0xE0002000  returns 0x00 (0000ms, 0779ms total)
T3F68 000:855 JLINK_GetDebugInfo(0x107 = JLINKARM_DEBUG_INFO_NVIC_ADDR_INDEX) -- Value=0xE000E000  returns 0x00 (0000ms, 0779ms total)
T3F68 000:855 JLINK_GetDebugInfo(0x10C = JLINKARM_DEBUG_INFO_DBG_ADDR_INDEX) -- Value=0xE000EDF0  returns 0x00 (0000ms, 0779ms total)
T3F68 000:855 JLINK_ReadMemU32(0xE000EF40, 0x0001 Items, ...) -- CPU_ReadMem(4 bytes @ 0xE000EF40) - Data: 21 00 11 10  returns 0x01 (0001ms, 0780ms total)
T3F68 000:856 JLINK_ReadMemU32(0xE000EF44, 0x0001 Items, ...) -- CPU_ReadMem(4 bytes @ 0xE000EF44) - Data: 11 00 00 11  returns 0x01 (0000ms, 0780ms total)
T3F68 000:856 JLINK_ReadMemU32(0xE000ED00, 0x0001 Items, ...) -- CPU_ReadMem(4 bytes @ 0xE000ED00) - Data: 41 C2 0F 41  returns 0x01 (0001ms, 0781ms total)
T3F68 000:857 JLINK_SetResetType(JLINKARM_CM3_RESET_TYPE_NORMAL)  returns JLINKARM_CM3_RESET_TYPE_NORMAL (0000ms, 0781ms total)
T3F68 000:857 JLINK_Reset() -- CPU_WriteMem(4 bytes @ 0xE000EDF0) -- CPU_WriteMem(4 bytes @ 0xE000EDFC) >0x35 TIF>Setting AIRCR.SYSRESETREQ -- CPU_WriteMem(4 bytes @ 0xE000ED0C) >0x0D TIF> >0x28 TIF> -- CPU_ReadMem(4 bytes @ 0xE000ED0C) -- CPU_ReadMem(4 bytes @ 0xE000EDF0) -- CPU_ReadMem(4 bytes @ 0xE000EDF0) -- CPU_ReadMem(4 bytes @ 0xE000EDF0) -- CPU_WriteMem(4 bytes @ 0xE000EDF0) -- CPU_WriteMem(4 bytes @ 0xE000EDFC) -- CPU_ReadMem(4 bytes @ 0xE000EDF0) -- CPU_WriteMem(4 bytes @ 0xE0002000)
 -- CPU_ReadMem(4 bytes @ 0xE000EDFC) -- CPU_ReadMem(4 bytes @ 0xE0001000) (0076ms, 0857ms total)
T3F68 000:933 JLINK_Halt()  returns 0x00 (0000ms, 0857ms total)
T3F68 000:933 JLINK_IsHalted()  returns TRUE (0000ms, 0857ms total)
T3F68 000:933 JLINK_ReadMemU32(0xE000EDF0, 0x0001 Items, ...) -- CPU_ReadMem(4 bytes @ 0xE000EDF0) - Data: 03 00 03 00  returns 0x01 (0001ms, 0858ms total)
T3F68 000:934 JLINK_WriteU32(0xE000EDF0, 0xA05F0003) -- CPU_WriteMem(4 bytes @ 0xE000EDF0)  returns 0x00 (0001ms, 0859ms total)
T3F68 000:935 JLINK_WriteU32(0xE000EDFC, 0x01000000) -- CPU_WriteMem(4 bytes @ 0xE000EDFC)  returns 0x00 (0001ms, 0860ms total)
T3F68 000:945 JLINK_GetHWStatus(...)  returns 0x00 (0001ms, 0861ms total)
T3F68 000:954 JLINK_GetNumBPUnits(Type = 0xFFFFFF00)  returns 0x06 (0000ms, 0861ms total)
T3F68 000:954 JLINK_GetNumBPUnits(Type = 0xF0)  returns 0x2000 (0000ms, 0861ms total)
T3F68 000:954 JLINK_GetNumWPUnits()  returns 0x04 (0000ms, 0861ms total)
T3F68 000:962 JLINK_GetSpeed()  returns 0x3E8 (0000ms, 0861ms total)
T3F68 000:968 JLINK_ReadMemU32(0xE000E004, 0x0001 Items, ...) -- CPU_ReadMem(4 bytes @ 0xE000E004) - Data: 02 00 00 00  returns 0x01 (0001ms, 0862ms total)
T3F68 000:969 JLINK_ReadMemU32(0xE000E004, 0x0001 Items, ...) -- CPU_ReadMem(4 bytes @ 0xE000E004) - Data: 02 00 00 00  returns 0x01 (0001ms, 0863ms total)
T3F68 000:970 JLINK_WriteMem(0xE0001000, 0x001C Bytes, ...) - Data: 01 00 00 00 00 00 00 00 00 00 00 00 00 00 00 00 ... -- CPU_WriteMem(28 bytes @ 0xE0001000)  returns 0x1C (0001ms, 0864ms total)
T3F68 000:971 JLINK_ReadMem (0xE0001000, 0x001C Bytes, ...) -- CPU_ReadMem(28 bytes @ 0xE0001000) - Data: 01 00 00 40 00 00 00 00 00 00 00 00 00 00 00 00 ...  returns 0x00 (0001ms, 0865ms total)
T3F68 000:972 JLINK_Halt()  returns 0x00 (0000ms, 0865ms total)
T3F68 000:972 JLINK_IsHalted()  returns TRUE (0000ms, 0865ms total)
T3F68 000:975 JLINK_WriteMem(0x20000000, 0x0134 Bytes, ...) - Data: 00 BE 0A E0 0D 78 2D 06 68 40 08 24 40 00 00 D3 ... -- CPU_WriteMem(308 bytes @ 0x20000000)  returns 0x134 (0005ms, 0870ms total)
T3F68 000:980 JLINK_WriteReg(R0, 0x08000000)  returns 0x00 (0000ms, 0870ms total)
T3F68 000:980 JLINK_WriteReg(R1, 0x044AA200)  returns 0x00 (0000ms, 0870ms total)
T3F68 000:980 JLINK_WriteReg(R2, 0x00000001)  returns 0x00 (0000ms, 0870ms total)
T3F68 000:980 JLINK_WriteReg(R3, 0x00000000)  returns 0x00 (0000ms, 0870ms total)
T3F68 000:980 JLINK_WriteReg(R4, 0x00000000)  returns 0x00 (0000ms, 0870ms total)
T3F68 000:980 JLINK_WriteReg(R5, 0x00000000)  returns 0x00 (0000ms, 0870ms total)
T3F68 000:980 JLINK_WriteReg(R6, 0x00000000)  returns 0x00 (0000ms, 0870ms total)
T3F68 000:980 JLINK_WriteReg(R7, 0x00000000)  returns 0x00 (0000ms, 0870ms total)
T3F68 000:980 JLINK_WriteReg(R8, 0x00000000)  returns 0x00 (0000ms, 0870ms total)
T3F68 000:980 JLINK_WriteReg(R9, 0x20000130)  returns 0x00 (0000ms, 0870ms total)
T3F68 000:980 JLINK_WriteReg(R10, 0x00000000)  returns 0x00 (0001ms, 0871ms total)
T3F68 000:981 JLINK_WriteReg(R11, 0x00000000)  returns 0x00 (0000ms, 0871ms total)
T3F68 000:981 JLINK_WriteReg(R12, 0x00000000)  returns 0x00 (0000ms, 0871ms total)
T3F68 000:981 JLINK_WriteReg(R13 (SP), 0x20001000)  returns 0x00 (0000ms, 0871ms total)
T3F68 000:981 JLINK_WriteReg(R14, 0x20000001)  returns 0x00 (0000ms, 0871ms total)
T3F68 000:981 JLINK_WriteReg(R15 (PC), 0x20000038)  returns 0x00 (0000ms, 0871ms total)
T3F68 000:981 JLINK_WriteReg(XPSR, 0x01000000)  returns 0x00 (0000ms, 0871ms total)
T3F68 000:981 JLINK_WriteReg(MSP, 0x20001000)  returns 0x00 (0000ms, 0871ms total)
T3F68 000:981 JLINK_WriteReg(PSP, 0x20001000)  returns 0x00 (0000ms, 0871ms total)
T3F68 000:981 JLINK_WriteReg(CFBP, 0x00000000)  returns 0x00 (0000ms, 0871ms total)
T3F68 000:981 JLINK_SetBPEx(Addr = 0x20000000, Type = 0xFFFFFFF2) -- CPU_ReadMem(2 bytes @ 0x20000000)  returns 0x00000001 (0000ms, 0871ms total)
T3F68 000:981 JLINK_Go() -- CPU_WriteMem(2 bytes @ 0x20000000) -- CPU_ReadMem(4 bytes @ 0xE0001000) -- CPU_WriteMem(4 bytes @ 0xE0002008) -- CPU_WriteMem(4 bytes @ 0xE000200C) -- CPU_WriteMem(4 bytes @ 0xE0002010) -- CPU_WriteMem(4 bytes @ 0xE0002014) -- CPU_WriteMem(4 bytes @ 0xE0002018) -- CPU_WriteMem(4 bytes @ 0xE000201C) -- CPU_WriteMem(4 bytes @ 0xE0001004) (0008ms, 0879ms total)
T3F68 000:989 JLINK_IsHalted() -- CPU_ReadMem(2 bytes @ 0x20000000)  returns TRUE (0005ms, 0884ms total)
T3F68 000:994 JLINK_ReadReg(R15 (PC))  returns 0x20000000 (0000ms, 0879ms total)
T3F68 000:994 JLINK_ClrBPEx(BPHandle = 0x00000001)  returns 0x00 (0000ms, 0879ms total)
T3F68 000:994 JLINK_ReadReg(R0)  returns 0x00000000 (0000ms, 0879ms total)
T3F68 000:994 JLINK_WriteReg(R0, 0x08000000)  returns 0x00 (0000ms, 0879ms total)
T3F68 000:994 JLINK_WriteReg(R1, 0x00000800)  returns 0x00 (0000ms, 0879ms total)
T3F68 000:994 JLINK_WriteReg(R2, 0x000000FF)  returns 0x00 (0001ms, 0880ms total)
T3F68 000:995 JLINK_WriteReg(R3, 0x00000000)  returns 0x00 (0000ms, 0880ms total)
T3F68 000:995 JLINK_WriteReg(R4, 0x00000000)  returns 0x00 (0000ms, 0880ms total)
T3F68 000:995 JLINK_WriteReg(R5, 0x00000000)  returns 0x00 (0000ms, 0880ms total)
T3F68 000:995 JLINK_WriteReg(R6, 0x00000000)  returns 0x00 (0000ms, 0880ms total)
T3F68 000:995 JLINK_WriteReg(R7, 0x00000000)  returns 0x00 (0000ms, 0880ms total)
T3F68 000:995 JLINK_WriteReg(R8, 0x00000000)  returns 0x00 (0000ms, 0880ms total)
T3F68 000:995 JLINK_WriteReg(R9, 0x20000130)  returns 0x00 (0000ms, 0880ms total)
T3F68 000:995 JLINK_WriteReg(R10, 0x00000000)  returns 0x00 (0000ms, 0880ms total)
T3F68 000:995 JLINK_WriteReg(R11, 0x00000000)  returns 0x00 (0000ms, 0880ms total)
T3F68 000:995 JLINK_WriteReg(R12, 0x00000000)  returns 0x00 (0000ms, 0880ms total)
T3F68 000:995 JLINK_WriteReg(R13 (SP), 0x20001000)  returns 0x00 (0000ms, 0880ms total)
T3F68 000:995 JLINK_WriteReg(R14, 0x20000001)  returns 0x00 (0000ms, 0880ms total)
T3F68 000:995 JLINK_WriteReg(R15 (PC), 0x20000020)  returns 0x00 (0000ms, 0880ms total)
T3F68 000:995 JLINK_WriteReg(XPSR, 0x01000000)  returns 0x00 (0000ms, 0880ms total)
T3F68 000:995 JLINK_WriteReg(MSP, 0x20001000)  returns 0x00 (0000ms, 0880ms total)
T3F68 000:995 JLINK_WriteReg(PSP, 0x20001000)  returns 0x00 (0000ms, 0880ms total)
T3F68 000:995 JLINK_WriteReg(CFBP, 0x00000000)  returns 0x00 (0000ms, 0880ms total)
T3F68 000:995 JLINK_SetBPEx(Addr = 0x20000000, Type = 0xFFFFFFF2)  returns 0x00000002 (0000ms, 0880ms total)
T3F68 000:995 JLINK_Go() -- CPU_ReadMem(4 bytes @ 0xE0001000) (0003ms, 0883ms total)
T3F68 000:998 JLINK_IsHalted() -- CPU_ReadMem(2 bytes @ 0x20000000)  returns TRUE (0005ms, 0888ms total)
T3F68 001:003 JLINK_ReadReg(R15 (PC))  returns 0x20000000 (0000ms, 0883ms total)
T3F68 001:003 JLINK_ClrBPEx(BPHandle = 0x00000002)  returns 0x00 (0000ms, 0883ms total)
T3F68 001:003 JLINK_ReadReg(R0)  returns 0x00000001 (0000ms, 0883ms total)
T3F68 001:003 JLINK_WriteReg(R0, 0x08000000)  returns 0x00 (0000ms, 0883ms total)
T3F68 001:003 JLINK_WriteReg(R1, 0x00000800)  returns 0x00 (0000ms, 0883ms total)
T3F68 001:003 JLINK_WriteReg(R2, 0x000000FF)  returns 0x00 (0000ms, 0883ms total)
T3F68 001:003 JLINK_WriteReg(R3, 0x00000000)  returns 0x00 (0000ms, 0883ms total)
T3F68 001:003 JLINK_WriteReg(R4, 0x00000000)  returns 0x00 (0000ms, 0883ms total)
T3F68 001:003 JLINK_WriteReg(R5, 0x00000000)  returns 0x00 (0000ms, 0883ms total)
T3F68 001:003 JLINK_WriteReg(R6, 0x00000000)  returns 0x00 (0000ms, 0883ms total)
T3F68 001:003 JLINK_WriteReg(R7, 0x00000000)  returns 0x00 (0000ms, 0883ms total)
T3F68 001:003 JLINK_WriteReg(R8, 0x00000000)  returns 0x00 (0000ms, 0883ms total)
T3F68 001:003 JLINK_WriteReg(R9, 0x20000130)  returns 0x00 (0000ms, 0883ms total)
T3F68 001:003 JLINK_WriteReg(R10, 0x00000000)  returns 0x00 (0000ms, 0883ms total)
T3F68 001:003 JLINK_WriteReg(R11, 0x00000000)  returns 0x00 (0000ms, 0883ms total)
T3F68 001:003 JLINK_WriteReg(R12, 0x00000000)  returns 0x00 (0000ms, 0883ms total)
T3F68 001:003 JLINK_WriteReg(R13 (SP), 0x20001000)  returns 0x00 (0000ms, 0883ms total)
T3F68 001:003 JLINK_WriteReg(R14, 0x20000001)  returns 0x00 (0000ms, 0883ms total)
T3F68 001:003 JLINK_WriteReg(R15 (PC), 0x200000A0)  returns 0x00 (0000ms, 0883ms total)
T3F68 001:003 JLINK_WriteReg(XPSR, 0x01000000)  returns 0x00 (0000ms, 0883ms total)
T3F68 001:003 JLINK_WriteReg(MSP, 0x20001000)  returns 0x00 (0000ms, 0883ms total)
T3F68 001:003 JLINK_WriteReg(PSP, 0x20001000)  returns 0x00 (0000ms, 0883ms total)
T3F68 001:003 JLINK_WriteReg(CFBP, 0x00000000)  returns 0x00 (0000ms, 0883ms total)
T3F68 001:003 JLINK_SetBPEx(Addr = 0x20000000, Type = 0xFFFFFFF2)  returns 0x00000003 (0000ms, 0883ms total)
T3F68 001:003 JLINK_Go() -- CPU_ReadMem(4 bytes @ 0xE0001000) (0003ms, 0886ms total)
T3F68 001:006 JLINK_IsHalted()  returns FALSE (0001ms, 0887ms total)
T3F68 001:053 JLINK_IsHalted() -- CPU_ReadMem(2 bytes @ 0x20000000)  returns TRUE (0005ms, 0891ms total)
T3F68 001:058 JLINK_ReadReg(R15 (PC))  returns 0x20000000 (0000ms, 0886ms total)
T3F68 001:058 JLINK_ClrBPEx(BPHandle = 0x00000003)  returns 0x00 (0000ms, 0886ms total)
T3F68 001:058 JLINK_ReadReg(R0)  returns 0x00000000 (0000ms, 0886ms total)
T3F68 001:060 JLINK_WriteReg(R0, 0x08001800)  returns 0x00 (0000ms, 0886ms total)
T3F68 001:060 JLINK_WriteReg(R1, 0x00000800)  returns 0x00 (0000ms, 0886ms total)
T3F68 001:060 JLINK_WriteReg(R2, 0x000000FF)  returns 0x00 (0000ms, 0886ms total)
T3F68 001:060 JLINK_WriteReg(R3, 0x00000000)  returns 0x00 (0000ms, 0886ms total)
T3F68 001:060 JLINK_WriteReg(R4, 0x00000000)  returns 0x00 (0000ms, 0886ms total)
T3F68 001:060 JLINK_WriteReg(R5, 0x00000000)  returns 0x00 (0000ms, 0886ms total)
T3F68 001:060 JLINK_WriteReg(R6, 0x00000000)  returns 0x00 (0000ms, 0886ms total)
T3F68 001:060 JLINK_WriteReg(R7, 0x00000000)  returns 0x00 (0000ms, 0886ms total)
T3F68 001:060 JLINK_WriteReg(R8, 0x00000000)  returns 0x00 (0000ms, 0886ms total)
T3F68 001:060 JLINK_WriteReg(R9, 0x20000130)  returns 0x00 (0000ms, 0886ms total)
T3F68 001:060 JLINK_WriteReg(R10, 0x00000000)  returns 0x00 (0000ms, 0886ms total)
T3F68 001:060 JLINK_WriteReg(R11, 0x00000000)  returns 0x00 (0000ms, 0886ms total)
T3F68 001:060 JLINK_WriteReg(R12, 0x00000000)  returns 0x00 (0000ms, 0886ms total)
T3F68 001:060 JLINK_WriteReg(R13 (SP), 0x20001000)  returns 0x00 (0000ms, 0886ms total)
T3F68 001:060 JLINK_WriteReg(R14, 0x20000001)  returns 0x00 (0000ms, 0886ms total)
T3F68 001:060 JLINK_WriteReg(R15 (PC), 0x20000020)  returns 0x00 (0000ms, 0886ms total)
T3F68 001:060 JLINK_WriteReg(XPSR, 0x01000000)  returns 0x00 (0000ms, 0886ms total)
T3F68 001:060 JLINK_WriteReg(MSP, 0x20001000)  returns 0x00 (0000ms, 0886ms total)
T3F68 001:060 JLINK_WriteReg(PSP, 0x20001000)  returns 0x00 (0000ms, 0886ms total)
T3F68 001:060 JLINK_WriteReg(CFBP, 0x00000000)  returns 0x00 (0000ms, 0886ms total)
T3F68 001:060 JLINK_SetBPEx(Addr = 0x20000000, Type = 0xFFFFFFF2)  returns 0x00000004 (0000ms, 0886ms total)
T3F68 001:060 JLINK_Go() -- CPU_ReadMem(4 bytes @ 0xE0001000) (0003ms, 0889ms total)
T3F68 001:063 JLINK_IsHalted() -- CPU_ReadMem(2 bytes @ 0x20000000)  returns TRUE (0006ms, 0895ms total)
T3F68 001:069 JLINK_ReadReg(R15 (PC))  returns 0x20000000 (0000ms, 0889ms total)
T3F68 001:069 JLINK_ClrBPEx(BPHandle = 0x00000004)  returns 0x00 (0000ms, 0889ms total)
T3F68 001:069 JLINK_ReadReg(R0)  returns 0x00000001 (0000ms, 0889ms total)
T3F68 001:069 JLINK_WriteReg(R0, 0x08001800)  returns 0x00 (0000ms, 0889ms total)
T3F68 001:069 JLINK_WriteReg(R1, 0x00000800)  returns 0x00 (0000ms, 0889ms total)
T3F68 001:069 JLINK_WriteReg(R2, 0x000000FF)  returns 0x00 (0000ms, 0889ms total)
T3F68 001:069 JLINK_WriteReg(R3, 0x00000000)  returns 0x00 (0000ms, 0889ms total)
T3F68 001:069 JLINK_WriteReg(R4, 0x00000000)  returns 0x00 (0000ms, 0889ms total)
T3F68 001:069 JLINK_WriteReg(R5, 0x00000000)  returns 0x00 (0000ms, 0889ms total)
T3F68 001:069 JLINK_WriteReg(R6, 0x00000000)  returns 0x00 (0000ms, 0889ms total)
T3F68 001:069 JLINK_WriteReg(R7, 0x00000000)  returns 0x00 (0000ms, 0889ms total)
T3F68 001:069 JLINK_WriteReg(R8, 0x00000000)  returns 0x00 (0000ms, 0889ms total)
T3F68 001:069 JLINK_WriteReg(R9, 0x20000130)  returns 0x00 (0000ms, 0889ms total)
T3F68 001:069 JLINK_WriteReg(R10, 0x00000000)  returns 0x00 (0000ms, 0889ms total)
T3F68 001:069 JLINK_WriteReg(R11, 0x00000000)  returns 0x00 (0000ms, 0889ms total)
T3F68 001:069 JLINK_WriteReg(R12, 0x00000000)  returns 0x00 (0000ms, 0889ms total)
T3F68 001:069 JLINK_WriteReg(R13 (SP), 0x20001000)  returns 0x00 (0000ms, 0889ms total)
T3F68 001:069 JLINK_WriteReg(R14, 0x20000001)  returns 0x00 (0000ms, 0889ms total)
T3F68 001:069 JLINK_WriteReg(R15 (PC), 0x200000A0)  returns 0x00 (0000ms, 0889ms total)
T3F68 001:069 JLINK_WriteReg(XPSR, 0x01000000)  returns 0x00 (0000ms, 0889ms total)
T3F68 001:070 JLINK_WriteReg(MSP, 0x20001000)  returns 0x00 (0000ms, 0890ms total)
T3F68 001:070 JLINK_WriteReg(PSP, 0x20001000)  returns 0x00 (0000ms, 0890ms total)
T3F68 001:070 JLINK_WriteReg(CFBP, 0x00000000)  returns 0x00 (0000ms, 0890ms total)
T3F68 001:070 JLINK_SetBPEx(Addr = 0x20000000, Type = 0xFFFFFFF2)  returns 0x00000005 (0000ms, 0890ms total)
T3F68 001:070 JLINK_Go() -- CPU_ReadMem(4 bytes @ 0xE0001000) (0002ms, 0892ms total)
T3F68 001:072 JLINK_IsHalted()  returns FALSE (0001ms, 0893ms total)
T3F68 001:080 JLINK_IsHalted()  returns FALSE (0000ms, 0892ms total)
T3F68 001:082 JLINK_IsHalted()  returns FALSE (0000ms, 0892ms total)
T3F68 001:086 JLINK_IsHalted()  returns FALSE (0000ms, 0892ms total)
T3F68 001:088 JLINK_IsHalted()  returns FALSE (0000ms, 0892ms total)
T3F68 001:090 JLINK_IsHalted()  returns FALSE (0000ms, 0892ms total)
T3F68 001:096 JLINK_IsHalted() -- CPU_ReadMem(2 bytes @ 0x20000000)  returns TRUE (0005ms, 0897ms total)
T3F68 001:101 JLINK_ReadReg(R15 (PC))  returns 0x20000000 (0000ms, 0892ms total)
T3F68 001:101 JLINK_ClrBPEx(BPHandle = 0x00000005)  returns 0x00 (0000ms, 0892ms total)
T3F68 001:101 JLINK_ReadReg(R0)  returns 0x00000000 (0000ms, 0892ms total)
T3F68 001:101 JLINK_WriteReg(R0, 0x08002000)  returns 0x00 (0000ms, 0892ms total)
T3F68 001:101 JLINK_WriteReg(R1, 0x00000800)  returns 0x00 (0000ms, 0892ms total)
T3F68 001:102 JLINK_WriteReg(R2, 0x000000FF)  returns 0x00 (0000ms, 0892ms total)
T3F68 001:102 JLINK_WriteReg(R3, 0x00000000)  returns 0x00 (0000ms, 0892ms total)
T3F68 001:102 JLINK_WriteReg(R4, 0x00000000)  returns 0x00 (0000ms, 0892ms total)
T3F68 001:102 JLINK_WriteReg(R5, 0x00000000)  returns 0x00 (0000ms, 0892ms total)
T3F68 001:102 JLINK_WriteReg(R6, 0x00000000)  returns 0x00 (0000ms, 0892ms total)
T3F68 001:102 JLINK_WriteReg(R7, 0x00000000)  returns 0x00 (0000ms, 0892ms total)
T3F68 001:102 JLINK_WriteReg(R8, 0x00000000)  returns 0x00 (0000ms, 0892ms total)
T3F68 001:102 JLINK_WriteReg(R9, 0x20000130)  returns 0x00 (0000ms, 0892ms total)
T3F68 001:102 JLINK_WriteReg(R10, 0x00000000)  returns 0x00 (0000ms, 0892ms total)
T3F68 001:102 JLINK_WriteReg(R11, 0x00000000)  returns 0x00 (0000ms, 0892ms total)
T3F68 001:102 JLINK_WriteReg(R12, 0x00000000)  returns 0x00 (0000ms, 0892ms total)
T3F68 001:102 JLINK_WriteReg(R13 (SP), 0x20001000)  returns 0x00 (0000ms, 0892ms total)
T3F68 001:102 JLINK_WriteReg(R14, 0x20000001)  returns 0x00 (0000ms, 0892ms total)
T3F68 001:102 JLINK_WriteReg(R15 (PC), 0x20000020)  returns 0x00 (0000ms, 0892ms total)
T3F68 001:102 JLINK_WriteReg(XPSR, 0x01000000)  returns 0x00 (0000ms, 0892ms total)
T3F68 001:102 JLINK_WriteReg(MSP, 0x20001000)  returns 0x00 (0000ms, 0892ms total)
T3F68 001:102 JLINK_WriteReg(PSP, 0x20001000)  returns 0x00 (0000ms, 0892ms total)
T3F68 001:102 JLINK_WriteReg(CFBP, 0x00000000)  returns 0x00 (0000ms, 0892ms total)
T3F68 001:102 JLINK_SetBPEx(Addr = 0x20000000, Type = 0xFFFFFFF2)  returns 0x00000006 (0000ms, 0892ms total)
T3F68 001:102 JLINK_Go() -- CPU_ReadMem(4 bytes @ 0xE0001000) (0003ms, 0895ms total)
T3F68 001:105 JLINK_IsHalted() -- CPU_ReadMem(2 bytes @ 0x20000000)  returns TRUE (0005ms, 0900ms total)
T3F68 001:110 JLINK_ReadReg(R15 (PC))  returns 0x20000000 (0000ms, 0895ms total)
T3F68 001:110 JLINK_ClrBPEx(BPHandle = 0x00000006)  returns 0x00 (0000ms, 0895ms total)
T3F68 001:110 JLINK_ReadReg(R0)  returns 0x00000001 (0000ms, 0895ms total)
T3F68 001:110 JLINK_WriteReg(R0, 0x08002000)  returns 0x00 (0000ms, 0895ms total)
T3F68 001:110 JLINK_WriteReg(R1, 0x00000800)  returns 0x00 (0000ms, 0895ms total)
T3F68 001:110 JLINK_WriteReg(R2, 0x000000FF)  returns 0x00 (0000ms, 0895ms total)
T3F68 001:110 JLINK_WriteReg(R3, 0x00000000)  returns 0x00 (0000ms, 0895ms total)
T3F68 001:110 JLINK_WriteReg(R4, 0x00000000)  returns 0x00 (0000ms, 0895ms total)
T3F68 001:110 JLINK_WriteReg(R5, 0x00000000)  returns 0x00 (0000ms, 0895ms total)
T3F68 001:110 JLINK_WriteReg(R6, 0x00000000)  returns 0x00 (0000ms, 0895ms total)
T3F68 001:110 JLINK_WriteReg(R7, 0x00000000)  returns 0x00 (0000ms, 0895ms total)
T3F68 001:110 JLINK_WriteReg(R8, 0x00000000)  returns 0x00 (0000ms, 0895ms total)
T3F68 001:110 JLINK_WriteReg(R9, 0x20000130)  returns 0x00 (0000ms, 0895ms total)
T3F68 001:110 JLINK_WriteReg(R10, 0x00000000)  returns 0x00 (0000ms, 0895ms total)
T3F68 001:110 JLINK_WriteReg(R11, 0x00000000)  returns 0x00 (0000ms, 0895ms total)
T3F68 001:110 JLINK_WriteReg(R12, 0x00000000)  returns 0x00 (0000ms, 0895ms total)
T3F68 001:110 JLINK_WriteReg(R13 (SP), 0x20001000)  returns 0x00 (0000ms, 0895ms total)
T3F68 001:110 JLINK_WriteReg(R14, 0x20000001)  returns 0x00 (0001ms, 0896ms total)
T3F68 001:111 JLINK_WriteReg(R15 (PC), 0x200000A0)  returns 0x00 (0000ms, 0896ms total)
T3F68 001:111 JLINK_WriteReg(XPSR, 0x01000000)  returns 0x00 (0000ms, 0896ms total)
T3F68 001:111 JLINK_WriteReg(MSP, 0x20001000)  returns 0x00 (0000ms, 0896ms total)
T3F68 001:111 JLINK_WriteReg(PSP, 0x20001000)  returns 0x00 (0000ms, 0896ms total)
T3F68 001:111 JLINK_WriteReg(CFBP, 0x00000000)  returns 0x00 (0000ms, 0896ms total)
T3F68 001:111 JLINK_SetBPEx(Addr = 0x20000000, Type = 0xFFFFFFF2)  returns 0x00000007 (0000ms, 0896ms total)
T3F68 001:111 JLINK_Go() -- CPU_ReadMem(4 bytes @ 0xE0001000) (0002ms, 0898ms total)
T3F68 001:113 JLINK_IsHalted()  returns FALSE (0001ms, 0899ms total)
T3F68 001:117 JLINK_IsHalted()  returns FALSE (0000ms, 0898ms total)
T3F68 001:119 JLINK_IsHalted()  returns FALSE (0000ms, 0898ms total)
T3F68 001:124 JLINK_IsHalted()  returns FALSE (0000ms, 0898ms total)
T3F68 001:126 JLINK_IsHalted()  returns FALSE (0000ms, 0898ms total)
T3F68 001:130 JLINK_IsHalted()  returns FALSE (0000ms, 0898ms total)
T3F68 001:132 JLINK_IsHalted()  returns FALSE (0000ms, 0898ms total)
T3F68 001:134 JLINK_IsHalted()  returns FALSE (0000ms, 0898ms total)
T3F68 001:138 JLINK_IsHalted() -- CPU_ReadMem(2 bytes @ 0x20000000)  returns TRUE (0005ms, 0903ms total)
T3F68 001:143 JLINK_ReadReg(R15 (PC))  returns 0x20000000 (0000ms, 0898ms total)
T3F68 001:143 JLINK_ClrBPEx(BPHandle = 0x00000007)  returns 0x00 (0000ms, 0898ms total)
T3F68 001:143 JLINK_ReadReg(R0)  returns 0x00000000 (0000ms, 0898ms total)
T3F68 001:144 JLINK_WriteReg(R0, 0x08002800)  returns 0x00 (0000ms, 0898ms total)
T3F68 001:144 JLINK_WriteReg(R1, 0x00000800)  returns 0x00 (0000ms, 0898ms total)
T3F68 001:144 JLINK_WriteReg(R2, 0x000000FF)  returns 0x00 (0000ms, 0898ms total)
T3F68 001:144 JLINK_WriteReg(R3, 0x00000000)  returns 0x00 (0000ms, 0898ms total)
T3F68 001:144 JLINK_WriteReg(R4, 0x00000000)  returns 0x00 (0000ms, 0898ms total)
T3F68 001:144 JLINK_WriteReg(R5, 0x00000000)  returns 0x00 (0000ms, 0898ms total)
T3F68 001:144 JLINK_WriteReg(R6, 0x00000000)  returns 0x00 (0000ms, 0898ms total)
T3F68 001:144 JLINK_WriteReg(R7, 0x00000000)  returns 0x00 (0000ms, 0898ms total)
T3F68 001:144 JLINK_WriteReg(R8, 0x00000000)  returns 0x00 (0000ms, 0898ms total)
T3F68 001:144 JLINK_WriteReg(R9, 0x20000130)  returns 0x00 (0000ms, 0898ms total)
T3F68 001:144 JLINK_WriteReg(R10, 0x00000000)  returns 0x00 (0000ms, 0898ms total)
T3F68 001:144 JLINK_WriteReg(R11, 0x00000000)  returns 0x00 (0000ms, 0898ms total)
T3F68 001:144 JLINK_WriteReg(R12, 0x00000000)  returns 0x00 (0000ms, 0898ms total)
T3F68 001:144 JLINK_WriteReg(R13 (SP), 0x20001000)  returns 0x00 (0000ms, 0898ms total)
T3F68 001:144 JLINK_WriteReg(R14, 0x20000001)  returns 0x00 (0000ms, 0898ms total)
T3F68 001:144 JLINK_WriteReg(R15 (PC), 0x20000020)  returns 0x00 (0000ms, 0898ms total)
T3F68 001:144 JLINK_WriteReg(XPSR, 0x01000000)  returns 0x00 (0000ms, 0898ms total)
T3F68 001:144 JLINK_WriteReg(MSP, 0x20001000)  returns 0x00 (0000ms, 0898ms total)
T3F68 001:144 JLINK_WriteReg(PSP, 0x20001000)  returns 0x00 (0000ms, 0898ms total)
T3F68 001:144 JLINK_WriteReg(CFBP, 0x00000000)  returns 0x00 (0000ms, 0898ms total)
T3F68 001:144 JLINK_SetBPEx(Addr = 0x20000000, Type = 0xFFFFFFF2)  returns 0x00000008 (0000ms, 0898ms total)
T3F68 001:144 JLINK_Go() -- CPU_ReadMem(4 bytes @ 0xE0001000) (0003ms, 0901ms total)
T3F68 001:147 JLINK_IsHalted() -- CPU_ReadMem(2 bytes @ 0x20000000)  returns TRUE (0006ms, 0907ms total)
T3F68 001:153 JLINK_ReadReg(R15 (PC))  returns 0x20000000 (0000ms, 0901ms total)
T3F68 001:153 JLINK_ClrBPEx(BPHandle = 0x00000008)  returns 0x00 (0000ms, 0901ms total)
T3F68 001:153 JLINK_ReadReg(R0)  returns 0x00000001 (0000ms, 0901ms total)
T3F68 001:153 JLINK_WriteReg(R0, 0x08002800)  returns 0x00 (0000ms, 0901ms total)
T3F68 001:153 JLINK_WriteReg(R1, 0x00000800)  returns 0x00 (0000ms, 0901ms total)
T3F68 001:153 JLINK_WriteReg(R2, 0x000000FF)  returns 0x00 (0000ms, 0901ms total)
T3F68 001:153 JLINK_WriteReg(R3, 0x00000000)  returns 0x00 (0000ms, 0901ms total)
T3F68 001:153 JLINK_WriteReg(R4, 0x00000000)  returns 0x00 (0000ms, 0901ms total)
T3F68 001:153 JLINK_WriteReg(R5, 0x00000000)  returns 0x00 (0000ms, 0901ms total)
T3F68 001:153 JLINK_WriteReg(R6, 0x00000000)  returns 0x00 (0000ms, 0901ms total)
T3F68 001:153 JLINK_WriteReg(R7, 0x00000000)  returns 0x00 (0000ms, 0901ms total)
T3F68 001:153 JLINK_WriteReg(R8, 0x00000000)  returns 0x00 (0000ms, 0901ms total)
T3F68 001:153 JLINK_WriteReg(R9, 0x20000130)  returns 0x00 (0000ms, 0901ms total)
T3F68 001:153 JLINK_WriteReg(R10, 0x00000000)  returns 0x00 (0000ms, 0901ms total)
T3F68 001:153 JLINK_WriteReg(R11, 0x00000000)  returns 0x00 (0000ms, 0901ms total)
T3F68 001:153 JLINK_WriteReg(R12, 0x00000000)  returns 0x00 (0000ms, 0901ms total)
T3F68 001:153 JLINK_WriteReg(R13 (SP), 0x20001000)  returns 0x00 (0000ms, 0901ms total)
T3F68 001:153 JLINK_WriteReg(R14, 0x20000001)  returns 0x00 (0000ms, 0901ms total)
T3F68 001:153 JLINK_WriteReg(R15 (PC), 0x200000A0)  returns 0x00 (0000ms, 0901ms total)
T3F68 001:153 JLINK_WriteReg(XPSR, 0x01000000)  returns 0x00 (0000ms, 0901ms total)
T3F68 001:153 JLINK_WriteReg(MSP, 0x20001000)  returns 0x00 (0000ms, 0901ms total)
T3F68 001:153 JLINK_WriteReg(PSP, 0x20001000)  returns 0x00 (0000ms, 0901ms total)
T3F68 001:153 JLINK_WriteReg(CFBP, 0x00000000)  returns 0x00 (0000ms, 0901ms total)
T3F68 001:153 JLINK_SetBPEx(Addr = 0x20000000, Type = 0xFFFFFFF2)  returns 0x00000009 (0000ms, 0901ms total)
T3F68 001:153 JLINK_Go() -- CPU_ReadMem(4 bytes @ 0xE0001000) (0003ms, 0904ms total)
T3F68 001:156 JLINK_IsHalted()  returns FALSE (0001ms, 0905ms total)
T3F68 001:160 JLINK_IsHalted()  returns FALSE (0000ms, 0904ms total)
T3F68 001:162 JLINK_IsHalted()  returns FALSE (0000ms, 0904ms total)
T3F68 001:164 JLINK_IsHalted()  returns FALSE (0000ms, 0904ms total)
T3F68 001:168 JLINK_IsHalted()  returns FALSE (0000ms, 0904ms total)
T3F68 001:170 JLINK_IsHalted()  returns FALSE (0000ms, 0904ms total)
T3F68 001:172 JLINK_IsHalted()  returns FALSE (0000ms, 0904ms total)
T3F68 001:175 JLINK_IsHalted()  returns FALSE (0001ms, 0905ms total)
T3F68 001:177 JLINK_IsHalted()  returns FALSE (0000ms, 0904ms total)
T3F68 001:179 JLINK_IsHalted() -- CPU_ReadMem(2 bytes @ 0x20000000)  returns TRUE (0005ms, 0909ms total)
T3F68 001:184 JLINK_ReadReg(R15 (PC))  returns 0x20000000 (0000ms, 0904ms total)
T3F68 001:184 JLINK_ClrBPEx(BPHandle = 0x00000009)  returns 0x00 (0000ms, 0904ms total)
T3F68 001:184 JLINK_ReadReg(R0)  returns 0x00000000 (0000ms, 0904ms total)
T3F68 001:185 JLINK_WriteReg(R0, 0x08003000)  returns 0x00 (0000ms, 0904ms total)
T3F68 001:185 JLINK_WriteReg(R1, 0x00000800)  returns 0x00 (0000ms, 0904ms total)
T3F68 001:185 JLINK_WriteReg(R2, 0x000000FF)  returns 0x00 (0000ms, 0904ms total)
T3F68 001:185 JLINK_WriteReg(R3, 0x00000000)  returns 0x00 (0000ms, 0904ms total)
T3F68 001:185 JLINK_WriteReg(R4, 0x00000000)  returns 0x00 (0000ms, 0904ms total)
T3F68 001:185 JLINK_WriteReg(R5, 0x00000000)  returns 0x00 (0000ms, 0904ms total)
T3F68 001:185 JLINK_WriteReg(R6, 0x00000000)  returns 0x00 (0000ms, 0904ms total)
T3F68 001:185 JLINK_WriteReg(R7, 0x00000000)  returns 0x00 (0000ms, 0904ms total)
T3F68 001:185 JLINK_WriteReg(R8, 0x00000000)  returns 0x00 (0000ms, 0904ms total)
T3F68 001:185 JLINK_WriteReg(R9, 0x20000130)  returns 0x00 (0000ms, 0904ms total)
T3F68 001:185 JLINK_WriteReg(R10, 0x00000000)  returns 0x00 (0000ms, 0904ms total)
T3F68 001:185 JLINK_WriteReg(R11, 0x00000000)  returns 0x00 (0000ms, 0904ms total)
T3F68 001:185 JLINK_WriteReg(R12, 0x00000000)  returns 0x00 (0000ms, 0904ms total)
T3F68 001:185 JLINK_WriteReg(R13 (SP), 0x20001000)  returns 0x00 (0000ms, 0904ms total)
T3F68 001:185 JLINK_WriteReg(R14, 0x20000001)  returns 0x00 (0000ms, 0904ms total)
T3F68 001:185 JLINK_WriteReg(R15 (PC), 0x20000020)  returns 0x00 (0000ms, 0904ms total)
T3F68 001:185 JLINK_WriteReg(XPSR, 0x01000000)  returns 0x00 (0000ms, 0904ms total)
T3F68 001:185 JLINK_WriteReg(MSP, 0x20001000)  returns 0x00 (0000ms, 0904ms total)
T3F68 001:185 JLINK_WriteReg(PSP, 0x20001000)  returns 0x00 (0000ms, 0904ms total)
T3F68 001:185 JLINK_WriteReg(CFBP, 0x00000000)  returns 0x00 (0000ms, 0904ms total)
T3F68 001:185 JLINK_SetBPEx(Addr = 0x20000000, Type = 0xFFFFFFF2)  returns 0x0000000A (0000ms, 0904ms total)
T3F68 001:185 JLINK_Go() -- CPU_ReadMem(4 bytes @ 0xE0001000) (0003ms, 0907ms total)
T3F68 001:188 JLINK_IsHalted() -- CPU_ReadMem(2 bytes @ 0x20000000)  returns TRUE (0005ms, 0912ms total)
T3F68 001:193 JLINK_ReadReg(R15 (PC))  returns 0x20000000 (0000ms, 0907ms total)
T3F68 001:193 JLINK_ClrBPEx(BPHandle = 0x0000000A)  returns 0x00 (0000ms, 0907ms total)
T3F68 001:193 JLINK_ReadReg(R0)  returns 0x00000001 (0000ms, 0907ms total)
T3F68 001:193 JLINK_WriteReg(R0, 0x08003000)  returns 0x00 (0000ms, 0907ms total)
T3F68 001:193 JLINK_WriteReg(R1, 0x00000800)  returns 0x00 (0000ms, 0907ms total)
T3F68 001:193 JLINK_WriteReg(R2, 0x000000FF)  returns 0x00 (0000ms, 0907ms total)
T3F68 001:193 JLINK_WriteReg(R3, 0x00000000)  returns 0x00 (0000ms, 0907ms total)
T3F68 001:193 JLINK_WriteReg(R4, 0x00000000)  returns 0x00 (0001ms, 0908ms total)
T3F68 001:194 JLINK_WriteReg(R5, 0x00000000)  returns 0x00 (0000ms, 0908ms total)
T3F68 001:194 JLINK_WriteReg(R6, 0x00000000)  returns 0x00 (0000ms, 0908ms total)
T3F68 001:194 JLINK_WriteReg(R7, 0x00000000)  returns 0x00 (0000ms, 0908ms total)
T3F68 001:194 JLINK_WriteReg(R8, 0x00000000)  returns 0x00 (0000ms, 0908ms total)
T3F68 001:194 JLINK_WriteReg(R9, 0x20000130)  returns 0x00 (0000ms, 0908ms total)
T3F68 001:194 JLINK_WriteReg(R10, 0x00000000)  returns 0x00 (0000ms, 0908ms total)
T3F68 001:194 JLINK_WriteReg(R11, 0x00000000)  returns 0x00 (0000ms, 0908ms total)
T3F68 001:194 JLINK_WriteReg(R12, 0x00000000)  returns 0x00 (0000ms, 0908ms total)
T3F68 001:194 JLINK_WriteReg(R13 (SP), 0x20001000)  returns 0x00 (0000ms, 0908ms total)
T3F68 001:194 JLINK_WriteReg(R14, 0x20000001)  returns 0x00 (0000ms, 0908ms total)
T3F68 001:194 JLINK_WriteReg(R15 (PC), 0x200000A0)  returns 0x00 (0000ms, 0908ms total)
T3F68 001:194 JLINK_WriteReg(XPSR, 0x01000000)  returns 0x00 (0000ms, 0908ms total)
T3F68 001:194 JLINK_WriteReg(MSP, 0x20001000)  returns 0x00 (0000ms, 0908ms total)
T3F68 001:194 JLINK_WriteReg(PSP, 0x20001000)  returns 0x00 (0000ms, 0908ms total)
T3F68 001:194 JLINK_WriteReg(CFBP, 0x00000000)  returns 0x00 (0000ms, 0908ms total)
T3F68 001:194 JLINK_SetBPEx(Addr = 0x20000000, Type = 0xFFFFFFF2)  returns 0x0000000B (0000ms, 0908ms total)
T3F68 001:194 JLINK_Go() -- CPU_ReadMem(4 bytes @ 0xE0001000) (0003ms, 0911ms total)
T3F68 001:197 JLINK_IsHalted()  returns FALSE (0000ms, 0911ms total)
T3F68 001:200 JLINK_IsHalted()  returns FALSE (0000ms, 0911ms total)
T3F68 001:202 JLINK_IsHalted()  returns FALSE (0000ms, 0911ms total)
T3F68 001:204 JLINK_IsHalted()  returns FALSE (0000ms, 0911ms total)
T3F68 001:206 JLINK_IsHalted()  returns FALSE (0000ms, 0911ms total)
T3F68 001:208 JLINK_IsHalted()  returns FALSE (0000ms, 0911ms total)
T3F68 001:210 JLINK_IsHalted()  returns FALSE (0000ms, 0911ms total)
T3F68 001:212 JLINK_IsHalted()  returns FALSE (0000ms, 0911ms total)
T3F68 001:214 JLINK_IsHalted()  returns FALSE (0000ms, 0911ms total)
T3F68 001:216 JLINK_IsHalted()  returns FALSE (0000ms, 0911ms total)
T3F68 001:218 JLINK_IsHalted()  returns FALSE (0000ms, 0911ms total)
T3F68 001:220 JLINK_IsHalted() -- CPU_ReadMem(2 bytes @ 0x20000000)  returns TRUE (0005ms, 0916ms total)
T3F68 001:225 JLINK_ReadReg(R15 (PC))  returns 0x20000000 (0000ms, 0911ms total)
T3F68 001:225 JLINK_ClrBPEx(BPHandle = 0x0000000B)  returns 0x00 (0000ms, 0911ms total)
T3F68 001:225 JLINK_ReadReg(R0)  returns 0x00000000 (0000ms, 0911ms total)
T3F68 001:226 JLINK_WriteReg(R0, 0x08003800)  returns 0x00 (0000ms, 0911ms total)
T3F68 001:226 JLINK_WriteReg(R1, 0x00000800)  returns 0x00 (0000ms, 0911ms total)
T3F68 001:226 JLINK_WriteReg(R2, 0x000000FF)  returns 0x00 (0000ms, 0911ms total)
T3F68 001:226 JLINK_WriteReg(R3, 0x00000000)  returns 0x00 (0000ms, 0911ms total)
T3F68 001:226 JLINK_WriteReg(R4, 0x00000000)  returns 0x00 (0000ms, 0911ms total)
T3F68 001:226 JLINK_WriteReg(R5, 0x00000000)  returns 0x00 (0000ms, 0911ms total)
T3F68 001:226 JLINK_WriteReg(R6, 0x00000000)  returns 0x00 (0000ms, 0911ms total)
T3F68 001:226 JLINK_WriteReg(R7, 0x00000000)  returns 0x00 (0000ms, 0911ms total)
T3F68 001:226 JLINK_WriteReg(R8, 0x00000000)  returns 0x00 (0000ms, 0911ms total)
T3F68 001:226 JLINK_WriteReg(R9, 0x20000130)  returns 0x00 (0000ms, 0911ms total)
T3F68 001:226 JLINK_WriteReg(R10, 0x00000000)  returns 0x00 (0000ms, 0911ms total)
T3F68 001:226 JLINK_WriteReg(R11, 0x00000000)  returns 0x00 (0000ms, 0911ms total)
T3F68 001:226 JLINK_WriteReg(R12, 0x00000000)  returns 0x00 (0000ms, 0911ms total)
T3F68 001:226 JLINK_WriteReg(R13 (SP), 0x20001000)  returns 0x00 (0000ms, 0911ms total)
T3F68 001:226 JLINK_WriteReg(R14, 0x20000001)  returns 0x00 (0000ms, 0911ms total)
T3F68 001:226 JLINK_WriteReg(R15 (PC), 0x20000020)  returns 0x00 (0000ms, 0911ms total)
T3F68 001:226 JLINK_WriteReg(XPSR, 0x01000000)  returns 0x00 (0000ms, 0911ms total)
T3F68 001:226 JLINK_WriteReg(MSP, 0x20001000)  returns 0x00 (0000ms, 0911ms total)
T3F68 001:226 JLINK_WriteReg(PSP, 0x20001000)  returns 0x00 (0000ms, 0911ms total)
T3F68 001:226 JLINK_WriteReg(CFBP, 0x00000000)  returns 0x00 (0000ms, 0911ms total)
T3F68 001:226 JLINK_SetBPEx(Addr = 0x20000000, Type = 0xFFFFFFF2)  returns 0x0000000C (0000ms, 0911ms total)
T3F68 001:226 JLINK_Go() -- CPU_ReadMem(4 bytes @ 0xE0001000) (0003ms, 0914ms total)
T3F68 001:229 JLINK_IsHalted() -- CPU_ReadMem(2 bytes @ 0x20000000)  returns TRUE (0006ms, 0920ms total)
T3F68 001:235 JLINK_ReadReg(R15 (PC))  returns 0x20000000 (0000ms, 0914ms total)
T3F68 001:235 JLINK_ClrBPEx(BPHandle = 0x0000000C)  returns 0x00 (0000ms, 0914ms total)
T3F68 001:235 JLINK_ReadReg(R0)  returns 0x00000001 (0000ms, 0914ms total)
T3F68 001:235 JLINK_WriteReg(R0, 0x08003800)  returns 0x00 (0000ms, 0914ms total)
T3F68 001:235 JLINK_WriteReg(R1, 0x00000800)  returns 0x00 (0000ms, 0914ms total)
T3F68 001:235 JLINK_WriteReg(R2, 0x000000FF)  returns 0x00 (0000ms, 0914ms total)
T3F68 001:235 JLINK_WriteReg(R3, 0x00000000)  returns 0x00 (0000ms, 0914ms total)
T3F68 001:235 JLINK_WriteReg(R4, 0x00000000)  returns 0x00 (0000ms, 0914ms total)
T3F68 001:235 JLINK_WriteReg(R5, 0x00000000)  returns 0x00 (0000ms, 0914ms total)
T3F68 001:235 JLINK_WriteReg(R6, 0x00000000)  returns 0x00 (0000ms, 0914ms total)
T3F68 001:235 JLINK_WriteReg(R7, 0x00000000)  returns 0x00 (0000ms, 0914ms total)
T3F68 001:235 JLINK_WriteReg(R8, 0x00000000)  returns 0x00 (0000ms, 0914ms total)
T3F68 001:235 JLINK_WriteReg(R9, 0x20000130)  returns 0x00 (0000ms, 0914ms total)
T3F68 001:235 JLINK_WriteReg(R10, 0x00000000)  returns 0x00 (0000ms, 0914ms total)
T3F68 001:235 JLINK_WriteReg(R11, 0x00000000)  returns 0x00 (0000ms, 0914ms total)
T3F68 001:235 JLINK_WriteReg(R12, 0x00000000)  returns 0x00 (0000ms, 0914ms total)
T3F68 001:235 JLINK_WriteReg(R13 (SP), 0x20001000)  returns 0x00 (0000ms, 0914ms total)
T3F68 001:235 JLINK_WriteReg(R14, 0x20000001)  returns 0x00 (0000ms, 0914ms total)
T3F68 001:235 JLINK_WriteReg(R15 (PC), 0x200000A0)  returns 0x00 (0000ms, 0914ms total)
T3F68 001:235 JLINK_WriteReg(XPSR, 0x01000000)  returns 0x00 (0000ms, 0914ms total)
T3F68 001:235 JLINK_WriteReg(MSP, 0x20001000)  returns 0x00 (0000ms, 0914ms total)
T3F68 001:235 JLINK_WriteReg(PSP, 0x20001000)  returns 0x00 (0000ms, 0914ms total)
T3F68 001:235 JLINK_WriteReg(CFBP, 0x00000000)  returns 0x00 (0000ms, 0914ms total)
T3F68 001:235 JLINK_SetBPEx(Addr = 0x20000000, Type = 0xFFFFFFF2)  returns 0x0000000D (0000ms, 0914ms total)
T3F68 001:235 JLINK_Go() -- CPU_ReadMem(4 bytes @ 0xE0001000) (0003ms, 0917ms total)
T3F68 001:238 JLINK_IsHalted()  returns FALSE (0000ms, 0917ms total)
T3F68 001:243 JLINK_IsHalted()  returns FALSE (0000ms, 0917ms total)
T3F68 001:246 JLINK_IsHalted()  returns FALSE (0000ms, 0917ms total)
T3F68 001:248 JLINK_IsHalted()  returns FALSE (0000ms, 0917ms total)
T3F68 001:250 JLINK_IsHalted()  returns FALSE (0000ms, 0917ms total)
T3F68 001:252 JLINK_IsHalted()  returns FALSE (0000ms, 0917ms total)
T3F68 001:254 JLINK_IsHalted()  returns FALSE (0000ms, 0917ms total)
T3F68 001:256 JLINK_IsHalted()  returns FALSE (0000ms, 0917ms total)
T3F68 001:258 JLINK_IsHalted()  returns FALSE (0000ms, 0917ms total)
T3F68 001:260 JLINK_IsHalted() -- CPU_ReadMem(2 bytes @ 0x20000000)  returns TRUE (0005ms, 0922ms total)
T3F68 001:265 JLINK_ReadReg(R15 (PC))  returns 0x20000000 (0000ms, 0917ms total)
T3F68 001:265 JLINK_ClrBPEx(BPHandle = 0x0000000D)  returns 0x00 (0000ms, 0917ms total)
T3F68 001:265 JLINK_ReadReg(R0)  returns 0x00000000 (0000ms, 0917ms total)
T3F68 001:266 JLINK_WriteReg(R0, 0x08004000)  returns 0x00 (0000ms, 0917ms total)
T3F68 001:266 JLINK_WriteReg(R1, 0x00000800)  returns 0x00 (0000ms, 0917ms total)
T3F68 001:266 JLINK_WriteReg(R2, 0x000000FF)  returns 0x00 (0000ms, 0917ms total)
T3F68 001:266 JLINK_WriteReg(R3, 0x00000000)  returns 0x00 (0000ms, 0917ms total)
T3F68 001:266 JLINK_WriteReg(R4, 0x00000000)  returns 0x00 (0000ms, 0917ms total)
T3F68 001:266 JLINK_WriteReg(R5, 0x00000000)  returns 0x00 (0000ms, 0917ms total)
T3F68 001:266 JLINK_WriteReg(R6, 0x00000000)  returns 0x00 (0000ms, 0917ms total)
T3F68 001:266 JLINK_WriteReg(R7, 0x00000000)  returns 0x00 (0000ms, 0917ms total)
T3F68 001:266 JLINK_WriteReg(R8, 0x00000000)  returns 0x00 (0000ms, 0917ms total)
T3F68 001:266 JLINK_WriteReg(R9, 0x20000130)  returns 0x00 (0000ms, 0917ms total)
T3F68 001:266 JLINK_WriteReg(R10, 0x00000000)  returns 0x00 (0000ms, 0917ms total)
T3F68 001:266 JLINK_WriteReg(R11, 0x00000000)  returns 0x00 (0000ms, 0917ms total)
T3F68 001:266 JLINK_WriteReg(R12, 0x00000000)  returns 0x00 (0000ms, 0917ms total)
T3F68 001:266 JLINK_WriteReg(R13 (SP), 0x20001000)  returns 0x00 (0000ms, 0917ms total)
T3F68 001:266 JLINK_WriteReg(R14, 0x20000001)  returns 0x00 (0000ms, 0917ms total)
T3F68 001:266 JLINK_WriteReg(R15 (PC), 0x20000020)  returns 0x00 (0000ms, 0917ms total)
T3F68 001:266 JLINK_WriteReg(XPSR, 0x01000000)  returns 0x00 (0000ms, 0917ms total)
T3F68 001:266 JLINK_WriteReg(MSP, 0x20001000)  returns 0x00 (0000ms, 0917ms total)
T3F68 001:266 JLINK_WriteReg(PSP, 0x20001000)  returns 0x00 (0000ms, 0917ms total)
T3F68 001:266 JLINK_WriteReg(CFBP, 0x00000000)  returns 0x00 (0000ms, 0917ms total)
T3F68 001:266 JLINK_SetBPEx(Addr = 0x20000000, Type = 0xFFFFFFF2)  returns 0x0000000E (0000ms, 0917ms total)
T3F68 001:266 JLINK_Go() -- CPU_ReadMem(4 bytes @ 0xE0001000) (0003ms, 0920ms total)
T3F68 001:269 JLINK_IsHalted() -- CPU_ReadMem(2 bytes @ 0x20000000)  returns TRUE (0005ms, 0925ms total)
T3F68 001:274 JLINK_ReadReg(R15 (PC))  returns 0x20000000 (0000ms, 0920ms total)
T3F68 001:274 JLINK_ClrBPEx(BPHandle = 0x0000000E)  returns 0x00 (0000ms, 0920ms total)
T3F68 001:274 JLINK_ReadReg(R0)  returns 0x00000001 (0000ms, 0920ms total)
T3F68 001:274 JLINK_WriteReg(R0, 0x08004000)  returns 0x00 (0000ms, 0920ms total)
T3F68 001:274 JLINK_WriteReg(R1, 0x00000800)  returns 0x00 (0000ms, 0920ms total)
T3F68 001:274 JLINK_WriteReg(R2, 0x000000FF)  returns 0x00 (0000ms, 0920ms total)
T3F68 001:274 JLINK_WriteReg(R3, 0x00000000)  returns 0x00 (0000ms, 0920ms total)
T3F68 001:274 JLINK_WriteReg(R4, 0x00000000)  returns 0x00 (0000ms, 0920ms total)
T3F68 001:274 JLINK_WriteReg(R5, 0x00000000)  returns 0x00 (0000ms, 0920ms total)
T3F68 001:274 JLINK_WriteReg(R6, 0x00000000)  returns 0x00 (0000ms, 0920ms total)
T3F68 001:274 JLINK_WriteReg(R7, 0x00000000)  returns 0x00 (0000ms, 0920ms total)
T3F68 001:274 JLINK_WriteReg(R8, 0x00000000)  returns 0x00 (0000ms, 0920ms total)
T3F68 001:274 JLINK_WriteReg(R9, 0x20000130)  returns 0x00 (0000ms, 0920ms total)
T3F68 001:274 JLINK_WriteReg(R10, 0x00000000)  returns 0x00 (0000ms, 0920ms total)
T3F68 001:275 JLINK_WriteReg(R11, 0x00000000)  returns 0x00 (0000ms, 0920ms total)
T3F68 001:275 JLINK_WriteReg(R12, 0x00000000)  returns 0x00 (0000ms, 0920ms total)
T3F68 001:275 JLINK_WriteReg(R13 (SP), 0x20001000)  returns 0x00 (0000ms, 0920ms total)
T3F68 001:275 JLINK_WriteReg(R14, 0x20000001)  returns 0x00 (0000ms, 0920ms total)
T3F68 001:275 JLINK_WriteReg(R15 (PC), 0x200000A0)  returns 0x00 (0000ms, 0920ms total)
T3F68 001:275 JLINK_WriteReg(XPSR, 0x01000000)  returns 0x00 (0000ms, 0920ms total)
T3F68 001:275 JLINK_WriteReg(MSP, 0x20001000)  returns 0x00 (0000ms, 0920ms total)
T3F68 001:275 JLINK_WriteReg(PSP, 0x20001000)  returns 0x00 (0000ms, 0920ms total)
T3F68 001:275 JLINK_WriteReg(CFBP, 0x00000000)  returns 0x00 (0000ms, 0920ms total)
T3F68 001:275 JLINK_SetBPEx(Addr = 0x20000000, Type = 0xFFFFFFF2)  returns 0x0000000F (0000ms, 0920ms total)
T3F68 001:275 JLINK_Go() -- CPU_ReadMem(4 bytes @ 0xE0001000) (0002ms, 0922ms total)
T3F68 001:277 JLINK_IsHalted()  returns FALSE (0001ms, 0923ms total)
T3F68 001:281 JLINK_IsHalted()  returns FALSE (0000ms, 0922ms total)
T3F68 001:283 JLINK_IsHalted()  returns FALSE (0000ms, 0922ms total)
T3F68 001:285 JLINK_IsHalted()  returns FALSE (0000ms, 0922ms total)
T3F68 001:288 JLINK_IsHalted()  returns FALSE (0000ms, 0922ms total)
T3F68 001:290 JLINK_IsHalted()  returns FALSE (0000ms, 0922ms total)
T3F68 001:292 JLINK_IsHalted()  returns FALSE (0000ms, 0922ms total)
T3F68 001:296 JLINK_IsHalted()  returns FALSE (0000ms, 0922ms total)
T3F68 001:298 JLINK_IsHalted()  returns FALSE (0000ms, 0922ms total)
T3F68 001:300 JLINK_IsHalted() -- CPU_ReadMem(2 bytes @ 0x20000000)  returns TRUE (0005ms, 0927ms total)
T3F68 001:305 JLINK_ReadReg(R15 (PC))  returns 0x20000000 (0000ms, 0922ms total)
T3F68 001:305 JLINK_ClrBPEx(BPHandle = 0x0000000F)  returns 0x00 (0000ms, 0922ms total)
T3F68 001:305 JLINK_ReadReg(R0)  returns 0x00000000 (0000ms, 0922ms total)
T3F68 001:306 JLINK_WriteReg(R0, 0x08004800)  returns 0x00 (0000ms, 0922ms total)
T3F68 001:306 JLINK_WriteReg(R1, 0x00000800)  returns 0x00 (0000ms, 0922ms total)
T3F68 001:306 JLINK_WriteReg(R2, 0x000000FF)  returns 0x00 (0000ms, 0922ms total)
T3F68 001:306 JLINK_WriteReg(R3, 0x00000000)  returns 0x00 (0000ms, 0922ms total)
T3F68 001:306 JLINK_WriteReg(R4, 0x00000000)  returns 0x00 (0000ms, 0922ms total)
T3F68 001:306 JLINK_WriteReg(R5, 0x00000000)  returns 0x00 (0000ms, 0922ms total)
T3F68 001:306 JLINK_WriteReg(R6, 0x00000000)  returns 0x00 (0000ms, 0922ms total)
T3F68 001:306 JLINK_WriteReg(R7, 0x00000000)  returns 0x00 (0000ms, 0922ms total)
T3F68 001:306 JLINK_WriteReg(R8, 0x00000000)  returns 0x00 (0000ms, 0922ms total)
T3F68 001:306 JLINK_WriteReg(R9, 0x20000130)  returns 0x00 (0000ms, 0922ms total)
T3F68 001:306 JLINK_WriteReg(R10, 0x00000000)  returns 0x00 (0000ms, 0922ms total)
T3F68 001:306 JLINK_WriteReg(R11, 0x00000000)  returns 0x00 (0000ms, 0922ms total)
T3F68 001:306 JLINK_WriteReg(R12, 0x00000000)  returns 0x00 (0000ms, 0922ms total)
T3F68 001:306 JLINK_WriteReg(R13 (SP), 0x20001000)  returns 0x00 (0000ms, 0922ms total)
T3F68 001:306 JLINK_WriteReg(R14, 0x20000001)  returns 0x00 (0000ms, 0922ms total)
T3F68 001:306 JLINK_WriteReg(R15 (PC), 0x20000020)  returns 0x00 (0000ms, 0922ms total)
T3F68 001:306 JLINK_WriteReg(XPSR, 0x01000000)  returns 0x00 (0000ms, 0922ms total)
T3F68 001:306 JLINK_WriteReg(MSP, 0x20001000)  returns 0x00 (0000ms, 0922ms total)
T3F68 001:306 JLINK_WriteReg(PSP, 0x20001000)  returns 0x00 (0000ms, 0922ms total)
T3F68 001:306 JLINK_WriteReg(CFBP, 0x00000000)  returns 0x00 (0000ms, 0922ms total)
T3F68 001:306 JLINK_SetBPEx(Addr = 0x20000000, Type = 0xFFFFFFF2)  returns 0x00000010 (0000ms, 0922ms total)
T3F68 001:306 JLINK_Go() -- CPU_ReadMem(4 bytes @ 0xE0001000) (0003ms, 0925ms total)
T3F68 001:309 JLINK_IsHalted() -- CPU_ReadMem(2 bytes @ 0x20000000)  returns TRUE (0005ms, 0930ms total)
T3F68 001:314 JLINK_ReadReg(R15 (PC))  returns 0x20000000 (0000ms, 0925ms total)
T3F68 001:314 JLINK_ClrBPEx(BPHandle = 0x00000010)  returns 0x00 (0000ms, 0925ms total)
T3F68 001:314 JLINK_ReadReg(R0)  returns 0x00000001 (0000ms, 0925ms total)
T3F68 001:314 JLINK_WriteReg(R0, 0x08004800)  returns 0x00 (0000ms, 0925ms total)
T3F68 001:314 JLINK_WriteReg(R1, 0x00000800)  returns 0x00 (0000ms, 0925ms total)
T3F68 001:314 JLINK_WriteReg(R2, 0x000000FF)  returns 0x00 (0000ms, 0925ms total)
T3F68 001:314 JLINK_WriteReg(R3, 0x00000000)  returns 0x00 (0000ms, 0925ms total)
T3F68 001:314 JLINK_WriteReg(R4, 0x00000000)  returns 0x00 (0000ms, 0925ms total)
T3F68 001:314 JLINK_WriteReg(R5, 0x00000000)  returns 0x00 (0000ms, 0925ms total)
T3F68 001:314 JLINK_WriteReg(R6, 0x00000000)  returns 0x00 (0000ms, 0925ms total)
T3F68 001:315 JLINK_WriteReg(R7, 0x00000000)  returns 0x00 (0000ms, 0925ms total)
T3F68 001:315 JLINK_WriteReg(R8, 0x00000000)  returns 0x00 (0000ms, 0925ms total)
T3F68 001:315 JLINK_WriteReg(R9, 0x20000130)  returns 0x00 (0000ms, 0925ms total)
